T3220 12871:875 SEGGER J-Link V6.46 Log File (0000ms, 98457ms total)
T3220 12871:875 DLL Compiled: May 23 2019 17:49:56 (0000ms, 98457ms total)
T3220 12871:875 Logging started @ 2020-04-10 14:11 (0000ms, 98457ms total)
T3220 12871:875 JLINK_SetWarnOutHandler(...) (0000ms, 98457ms total)
T3220 12871:875 JLINK_OpenEx(...)
Firmware: J-Link V9 compiled May 17 2019 09:50:41
Hardware: V9.40
S/N: 59409861
Feature(s): RDI, GDB, FlashDL, FlashBP, JFlash
TELNET listener socket opened on port 19021Device "CORTEX-M4" selected.WEBSRV 
Starting webserver (0069ms, 98526ms total)
T3220 12871:875 WEBSRV Webserver running on local port 19080 (0070ms, 98527ms total)
T3220 12871:875   returns O.K. (0070ms, 98527ms total)
T3220 12871:945 JLINK_GetEmuCaps()  returns 0xB9FF7BBF (0000ms, 98527ms total)
T3220 12871:946 JLINK_TIF_GetAvailable(...) (0000ms, 98527ms total)
T3220 12871:946 JLINK_SetErrorOutHandler(...) (0000ms, 98527ms total)
T3220 12871:946 JLINK_ExecCommand("ProjectFile = "D:\00-githubFiles\HC32F460_FreeRTOS\HC32F460Temp_FreeRTOS\JLinkSettings.ini"", ...). Device "CORTEX-M4" selected.  returns 0x00 (0008ms, 98535ms total)
T3220 12871:954 JLINK_ExecCommand("Device = HC32F460PETB", ...). Device "CORTEX-M4" selected.  returns 0x00 (0008ms, 98543ms total)
T3220 12871:962 JLINK_ExecCommand("DisableConnectionTimeout", ...).   returns 0x01 (0000ms, 98543ms total)
T3220 12871:962 JLINK_GetHardwareVersion()  returns 0x16F30 (0000ms, 98543ms total)
T3220 12871:962 JLINK_GetDLLVersion()  returns 64600 (0000ms, 98543ms total)
T3220 12871:962 JLINK_GetFirmwareString(...) (0000ms, 98543ms total)
T3220 12871:962 JLINK_GetDLLVersion()  returns 64600 (0000ms, 98543ms total)
T3220 12871:962 JLINK_GetCompileDateTime() (0000ms, 98543ms total)
T3220 12871:962 JLINK_GetFirmwareString(...) (0000ms, 98543ms total)
T3220 12871:962 JLINK_GetHardwareVersion()  returns 0x16F30 (0000ms, 98543ms total)
T3220 12871:962 JLINK_TIF_Select(JLINKARM_TIF_SWD)  returns 0x00 (0003ms, 98546ms total)
T3220 12871:965 JLINK_SetSpeed(5000) (0001ms, 98547ms total)
T3220 12871:966 JLINK_GetId() >0x10B TIF>Found SW-DP with ID 0x2BA01477 >0x0D TIF> >0x28 TIF> >0x0D TIF> >0x28 TIF> >0x0D TIF> >0x28 TIF> >0x0D TIF> >0x28 TIF> >0x0D TIF> >0x21 TIF> >0x0D TIF> >0x28 TIF>Scanning AP map to find all available APs >0x0D TIF> >0x28 TIF> >0x0D TIF> >0x21 TIF> >0x0D TIF> >0x21 TIF> >0x0D TIF> >0x28 TIF> >0x0D TIF> >0x21 TIF> >0x0D TIF> >0x21 TIF>AP[1]: Stopped AP scan as end of AP map has been reachedAP[0]: AHB-AP (IDR: 0x24770011)Iterating through AP map to find AHB-AP to use
 >0x42 TIF> >0x28 TIF> >0x0D TIF> >0x28 TIF> >0x0D TIF> >0x21 TIF> >0x0D TIF> >0x21 TIF> >0x42 TIF> >0x28 TIF> >0x0D TIF> >0x28 TIF> >0x0D TIF> >0x28 TIF> >0x0D TIF> >0x21 TIF> >0x0D TIF> >0x21 TIF>AP[0]: Core foundAP[0]: AHB-AP ROM base: 0xE00FF000 >0x0D TIF> >0x28 TIF> >0x0D TIF> >0x28 TIF> >0x0D TIF> >0x28 TIF> >0x0D TIF> >0x21 TIF> >0x0D TIF> >0x21 TIF>CPUID register: 0x410FC241. Implementer code: 0x41 (ARM)Found Cortex-M4 r0p1, Little endian. -- Max. mem block: 0x00010F28
 -- CPU_ReadMem(4 bytes @ 0xE000EDF0) -- CPU_WriteMem(4 bytes @ 0xE000EDF0) -- CPU_ReadMem(4 bytes @ 0xE0002000)FPUnit: 6 code (BP) slots and 2 literal slots -- CPU_ReadMem(4 bytes @ 0xE000EDFC) -- CPU_WriteMem(4 bytes @ 0xE000EDFC) -- CPU_ReadMem(4 bytes @ 0xE0001000) -- CPU_WriteMem(4 bytes @ 0xE0001000) -- CPU_ReadMem(4 bytes @ 0xE000ED88) -- CPU_WriteMem(4 bytes @ 0xE000ED88) -- CPU_ReadMem(4 bytes @ 0xE000ED88) -- CPU_WriteMem(4 bytes @ 0xE000ED88)CoreSight components:ROMTbl[0] @ E00FF000
 -- CPU_ReadMem(16 bytes @ 0xE00FF000) -- CPU_ReadMem(16 bytes @ 0xE000EFF0) -- CPU_ReadMem(16 bytes @ 0xE000EFE0)ROMTbl[0][0]: E000E000, CID: B105E00D, PID: 000BB00C SCS-M7 -- CPU_ReadMem(16 bytes @ 0xE0001FF0) -- CPU_ReadMem(16 bytes @ 0xE0001FE0)ROMTbl[0][1]: E0001000, CID: B105E00D, PID: 003BB002 DWT -- CPU_ReadMem(16 bytes @ 0xE0002FF0) -- CPU_ReadMem(16 bytes @ 0xE0002FE0)ROMTbl[0][2]: E0002000, CID: B105E00D, PID: 002BB003 FPB -- CPU_ReadMem(16 bytes @ 0xE0000FF0)
 -- CPU_ReadMem(16 bytes @ 0xE0000FE0)ROMTbl[0][3]: E0000000, CID: B105E00D, PID: 003BB001 ITM -- CPU_ReadMem(16 bytes @ 0xE00FF010) -- CPU_ReadMem(16 bytes @ 0xE0040FF0) -- CPU_ReadMem(16 bytes @ 0xE0040FE0)ROMTbl[0][4]: E0040000, CID: B105900D, PID: 000BB9A1 TPIU >0x0D TIF> >0x21 TIF>  returns 0x2BA01477 (0163ms, 98710ms total)
T3220 12872:129 JLINK_GetDLLVersion()  returns 64600 (0000ms, 98710ms total)
T3220 12872:129 JLINK_CORE_GetFound()  returns 0xE0000FF (0000ms, 98710ms total)
T3220 12872:129 JLINK_GetDebugInfo(0x100 = JLINKARM_ROM_TABLE_ADDR_INDEX) -- Value=0xE00FF000  returns 0x00 (0001ms, 98711ms total)
T3220 12872:130 JLINK_GetDebugInfo(0x100 = JLINKARM_ROM_TABLE_ADDR_INDEX) -- Value=0xE00FF000  returns 0x00 (0000ms, 98711ms total)
T3220 12872:130 JLINK_GetDebugInfo(0x101 = JLINKARM_DEBUG_INFO_ETM_ADDR_INDEX) -- Value=0x00000000  returns 0x00 (0000ms, 98711ms total)
T3220 12872:130 JLINK_ReadMemEx(0xE0041FF0, 0x0010 Bytes, ..., Flags = 0x02000004) -- CPU_ReadMem(16 bytes @ 0xE0041FF0) - Data: 00 00 00 00 00 00 00 00 00 00 00 00 00 00 00 00  returns 0x10 (0001ms, 98712ms total)
T3220 12872:131 JLINK_GetDebugInfo(0x102 = JLINKARM_DEBUG_INFO_MTB_ADDR_INDEX) -- Value=0x00000000  returns 0x00 (0000ms, 98712ms total)
T3220 12872:131 JLINK_GetDebugInfo(0x103 = JLINKARM_DEBUG_INFO_TPIU_ADDR_INDEX) -- Value=0xE0040000  returns 0x00 (0000ms, 98712ms total)
T3220 12872:131 JLINK_GetDebugInfo(0x104 = JLINKARM_DEBUG_INFO_ITM_ADDR_INDEX) -- Value=0xE0000000  returns 0x00 (0000ms, 98712ms total)
T3220 12872:131 JLINK_GetDebugInfo(0x105 = JLINKARM_DEBUG_INFO_DWT_ADDR_INDEX) -- Value=0xE0001000  returns 0x00 (0000ms, 98712ms total)
T3220 12872:131 JLINK_GetDebugInfo(0x106 = JLINKARM_DEBUG_INFO_FPB_ADDR_INDEX) -- Value=0xE0002000  returns 0x00 (0000ms, 98712ms total)
T3220 12872:131 JLINK_GetDebugInfo(0x107 = JLINKARM_DEBUG_INFO_NVIC_ADDR_INDEX) -- Value=0xE000E000  returns 0x00 (0000ms, 98712ms total)
T3220 12872:131 JLINK_GetDebugInfo(0x10C = JLINKARM_DEBUG_INFO_DBG_ADDR_INDEX) -- Value=0xE000EDF0  returns 0x00 (0000ms, 98712ms total)
T3220 12872:131 JLINK_GetDebugInfo(0x01 = Unknown) -- Value=0x00000001  returns 0x00 (0000ms, 98712ms total)
T3220 12872:131 JLINK_ReadMemU32(0xE000ED00, 0x0001 Items, ...) -- CPU_ReadMem(4 bytes @ 0xE000ED00) - Data: 41 C2 0F 41  returns 1 (0001ms, 98713ms total)
T3220 12872:132 JLINK_GetDebugInfo(0x10F = JLINKARM_DEBUG_INFO_HAS_CORTEX_M_SECURITY_EXT_INDEX) -- Value=0x00000000  returns 0x00 (0000ms, 98713ms total)
T3220 12872:132 JLINK_SetResetType(JLINKARM_CM3_RESET_TYPE_NORMAL)  returns JLINKARM_CM3_RESET_TYPE_NORMAL (0000ms, 98713ms total)
T3220 12872:132 JLINK_Reset() -- CPU is running -- CPU_WriteMem(4 bytes @ 0xE000EDF0) -- CPU is running -- CPU_WriteMem(4 bytes @ 0xE000EDFC)Reset: Halt core after reset via DEMCR.VC_CORERESET. >0x35 TIF>Reset: Reset device via AIRCR.SYSRESETREQ. -- CPU is running -- CPU_WriteMem(4 bytes @ 0xE000ED0C) >0x0D TIF> >0x28 TIF> -- CPU_ReadMem(4 bytes @ 0xE000EDF0) -- CPU_ReadMem(4 bytes @ 0xE000EDF0) -- CPU is running -- CPU_WriteMem(4 bytes @ 0xE000EDF0) -- CPU is running
 -- CPU_WriteMem(4 bytes @ 0xE000EDFC) -- CPU_ReadMem(4 bytes @ 0xE000EDF0) -- CPU_WriteMem(4 bytes @ 0xE0002000) -- CPU_ReadMem(4 bytes @ 0xE000EDFC) -- CPU_ReadMem(4 bytes @ 0xE0001000) (0077ms, 98790ms total)
T3220 12872:209 JLINK_ReadReg(R15 (PC))  returns 0x00000350 (0000ms, 98790ms total)
T3220 12872:209 JLINK_ReadReg(XPSR)  returns 0x01000000 (0000ms, 98790ms total)
T3220 12872:209 JLINK_Halt()  returns 0x00 (0001ms, 98791ms total)
T3220 12872:210 JLINK_ReadMemU32(0xE000EDF0, 0x0001 Items, ...) -- CPU_ReadMem(4 bytes @ 0xE000EDF0) - Data: 03 00 03 00  returns 1 (0001ms, 98792ms total)
T3220 12872:211 JLINK_WriteU32(0xE000EDF0, 0xA05F0003) -- CPU_WriteMem(4 bytes @ 0xE000EDF0)  returns 0 (0001ms, 98793ms total)
T3220 12872:213 JLINK_WriteU32(0xE000EDFC, 0x01000000) -- CPU_WriteMem(4 bytes @ 0xE000EDFC)  returns 0 (0001ms, 98795ms total)
T3220 12872:214 JLINK_GetHWStatus(...)  returns 0x00 (0001ms, 98796ms total)
T3220 12872:215 JLINK_GetNumBPUnits(Type = 0xFFFFFF00)  returns 0x06 (0000ms, 98796ms total)
T3220 12872:215 JLINK_GetNumBPUnits(Type = 0xF0)  returns 0x2000 (0000ms, 98796ms total)
T3220 12872:215 JLINK_GetNumWPUnits()  returns 0x04 (0000ms, 98796ms total)
T3220 12872:215 JLINK_GetSpeed()  returns 0xFA0 (0000ms, 98796ms total)
T3220 12872:215 JLINK_ReadMemU32(0xE000E004, 0x0001 Items, ...) -- CPU_ReadMem(4 bytes @ 0xE000E004) - Data: 04 00 00 00  returns 1 (0001ms, 98797ms total)
T3220 12872:217 JLINK_ReadMemU32(0xE000E004, 0x0001 Items, ...) -- CPU_ReadMem(4 bytes @ 0xE000E004) - Data: 04 00 00 00  returns 1 (0001ms, 98798ms total)
T3220 12872:218 JLINK_WriteMemEx(0xE0001000, 0x001C Bytes, ..., Flags = 0x02000004) - Data: 01 00 00 00 00 00 00 00 00 00 00 00 00 00 00 00 ... -- CPU_WriteMem(28 bytes @ 0xE0001000)  returns 0x1C (0002ms, 98800ms total)
T3220 12872:220 JLINK_ReadReg(R15 (PC))  returns 0x00000350 (0000ms, 98800ms total)
T3220 12872:220 JLINK_ReadReg(XPSR)  returns 0x01000000 (0000ms, 98800ms total)
T3220 12872:228 JLINK_ReadMemEx(0xE0001004, 0x0004 Bytes, ..., Flags = 0x02000000) - Data: 00 00 00 00  returns 0x04 (0001ms, 98801ms total)
T3220 12872:729 JLINK_SetResetType(JLINKARM_CM3_RESET_TYPE_NORMAL)  returns JLINKARM_CM3_RESET_TYPE_NORMAL (0000ms, 98801ms total)
T3220 12872:729 JLINK_Reset() -- CPU_WriteMem(4 bytes @ 0xE000EDF0) -- CPU_WriteMem(4 bytes @ 0xE000EDFC)Reset: Halt core after reset via DEMCR.VC_CORERESET. >0x35 TIF>Reset: Reset device via AIRCR.SYSRESETREQ. -- CPU_WriteMem(4 bytes @ 0xE000ED0C) >0x0D TIF> >0x28 TIF> -- CPU_ReadMem(4 bytes @ 0xE000EDF0) -- CPU_ReadMem(4 bytes @ 0xE000EDF0) -- CPU_WriteMem(4 bytes @ 0xE000EDF0) -- CPU_WriteMem(4 bytes @ 0xE000EDFC) -- CPU_ReadMem(4 bytes @ 0xE000EDF0) -- CPU_WriteMem(4 bytes @ 0xE0002000)
 -- CPU_ReadMem(4 bytes @ 0xE000EDFC) -- CPU_ReadMem(4 bytes @ 0xE0001000) (0079ms, 98880ms total)
T3220 12872:809 JLINK_ReadReg(R15 (PC))  returns 0x00000350 (0000ms, 98880ms total)
T3220 12872:809 JLINK_ReadReg(XPSR)  returns 0x01000000 (0000ms, 98880ms total)
T3220 12873:018 JLINK_ReadMemEx(0x00000350, 0x003C Bytes, ..., Flags = 0x02000000) -- CPU_ReadMem(60 bytes @ 0x00000350) - Data: 10 48 4F F0 77 01 01 60 0F 48 4F F0 77 01 01 60 ...  returns 0x3C (0002ms, 98882ms total)
T3220 12873:020 JLINK_ReadMemEx(0x00000350, 0x0002 Bytes, ..., Flags = 0x02000000) -- CPU_ReadMem(2 bytes @ 0x00000350) - Data: 10 48  returns 0x02 (0001ms, 98883ms total)
T3220 12873:021 JLINK_ReadMemEx(0x00000352, 0x0002 Bytes, ..., Flags = 0x02000000) -- CPU_ReadMem(2 bytes @ 0x00000352) - Data: 4F F0  returns 0x02 (0000ms, 98883ms total)
T3220 12873:021 JLINK_ReadMemEx(0x00000352, 0x0002 Bytes, ..., Flags = 0x02000000) -- CPU_ReadMem(2 bytes @ 0x00000352) - Data: 4F F0  returns 0x02 (0001ms, 98884ms total)
T3220 12873:022 JLINK_ReadMemEx(0x00000354, 0x003C Bytes, ..., Flags = 0x02000000) -- CPU_ReadMem(60 bytes @ 0x00000354) - Data: 77 01 01 60 0F 48 4F F0 77 01 01 60 0E 48 4F F4 ...  returns 0x3C (0001ms, 98885ms total)
T3220 12873:023 JLINK_ReadMemEx(0x00000354, 0x0002 Bytes, ..., Flags = 0x02000000) -- CPU_ReadMem(2 bytes @ 0x00000354) - Data: 77 01  returns 0x02 (0001ms, 98886ms total)
T3220 12873:090 JLINK_ReadMemEx(0x40040000, 0x0001 Bytes, ..., Flags = 0x02000001) -- CPU_ReadMem(1 bytes @ 0x40040000) - Data: 00  returns 0x01 (0001ms, 98887ms total)
T3220 12873:091 JLINK_ReadMemEx(0x40040002, 0x0002 Bytes, ..., Flags = 0x02000002) -- CPU_ReadMem(2 bytes @ 0x40040002) - Data: 00 00  returns 0x02 (0001ms, 98888ms total)
T3220 12873:092 JLINK_ReadMemEx(0x40040004, 0x0002 Bytes, ..., Flags = 0x02000002) -- CPU_ReadMem(2 bytes @ 0x40040004) - Data: 00 00  returns 0x02 (0001ms, 98889ms total)
T3220 12873:093 JLINK_ReadMemEx(0x4004000A, 0x000C Bytes, ..., Flags = 0x02000002) -- CPU_ReadMem(12 bytes @ 0x4004000A) - Data: 00 00 00 00 00 00 00 00 00 00 00 00  returns 0x0C (0001ms, 98890ms total)
T3220 12873:094 JLINK_ReadMemEx(0x40040016, 0x0002 Bytes, ..., Flags = 0x02000002) -- CPU_ReadMem(2 bytes @ 0x40040016) - Data: 00 00  returns 0x02 (0001ms, 98891ms total)
T3220 12873:095 JLINK_ReadMemEx(0x40040020, 0x0010 Bytes, ..., Flags = 0x02000001) -- CPU_ReadMem(16 bytes @ 0x40040020) - Data: 00 00 00 00 00 00 00 00 00 00 00 00 00 00 00 00  returns 0x10 (0002ms, 98893ms total)
T3220 12873:097 JLINK_ReadMemEx(0x40040030, 0x0001 Bytes, ..., Flags = 0x02000001) -- CPU_ReadMem(1 bytes @ 0x40040030) - Data: 00  returns 0x01 (0001ms, 98894ms total)
T3220 12873:098 JLINK_ReadMemEx(0x40040038, 0x0006 Bytes, ..., Flags = 0x02000002) -- CPU_ReadMem(6 bytes @ 0x40040038) - Data: 00 00 00 00 00 00  returns 0x06 (0001ms, 98895ms total)
T3220 12873:099 JLINK_ReadMemEx(0x4004003E, 0x0002 Bytes, ..., Flags = 0x02000002) -- CPU_ReadMem(2 bytes @ 0x4004003E) - Data: 00 00  returns 0x02 (0001ms, 98896ms total)
T3220 12873:100 JLINK_ReadMemEx(0x40040046, 0x0001 Bytes, ..., Flags = 0x02000001) -- CPU_ReadMem(1 bytes @ 0x40040046) - Data: 00  returns 0x01 (0000ms, 98896ms total)
T3220 12873:100 JLINK_ReadMemEx(0x40040047, 0x0001 Bytes, ..., Flags = 0x02000001) -- CPU_ReadMem(1 bytes @ 0x40040047) - Data: 00  returns 0x01 (0001ms, 98897ms total)
T3220 12873:101 JLINK_ReadMemEx(0x4004004C, 0x0002 Bytes, ..., Flags = 0x02000002) -- CPU_ReadMem(2 bytes @ 0x4004004C) - Data: 00 00  returns 0x02 (0000ms, 98897ms total)
T3220 12873:101 JLINK_ReadMemEx(0x40040050, 0x0020 Bytes, ..., Flags = 0x02000002) -- CPU_ReadMem(32 bytes @ 0x40040050) - Data: 00 00 00 00 00 00 00 00 00 00 00 00 00 00 00 00 ...  returns 0x20 (0001ms, 98898ms total)
T3220 12873:102 JLINK_ReadMemEx(0x40040070, 0x0002 Bytes, ..., Flags = 0x02000002) -- CPU_ReadMem(2 bytes @ 0x40040070) - Data: 00 00  returns 0x02 (0001ms, 98899ms total)
T3220 12873:103 JLINK_ReadMemEx(0x400400A0, 0x0002 Bytes, ..., Flags = 0x02000002) -- CPU_ReadMem(2 bytes @ 0x400400A0) - Data: 00 00  returns 0x02 (0002ms, 98901ms total)
T3220 12873:105 JLINK_ReadMemEx(0x400400A4, 0x0002 Bytes, ..., Flags = 0x02000002) -- CPU_ReadMem(2 bytes @ 0x400400A4) - Data: 00 00  returns 0x02 (0000ms, 98901ms total)
T3220 12873:105 JLINK_ReadMemEx(0x400400A6, 0x0002 Bytes, ..., Flags = 0x02000002) -- CPU_ReadMem(2 bytes @ 0x400400A6) - Data: 00 00  returns 0x02 (0001ms, 98902ms total)
T3220 12873:106 JLINK_ReadMemEx(0x400400AC, 0x0006 Bytes, ..., Flags = 0x02000002) -- CPU_ReadMem(6 bytes @ 0x400400AC) - Data: 00 00 00 00 00 00  returns 0x06 (0001ms, 98903ms total)
T3220 12873:107 JLINK_ReadMemEx(0x400400B2, 0x0002 Bytes, ..., Flags = 0x02000002) -- CPU_ReadMem(2 bytes @ 0x400400B2) - Data: 00 00  returns 0x02 (0001ms, 98904ms total)
T3220 12873:108 JLINK_ReadMemEx(0x400400C0, 0x0002 Bytes, ..., Flags = 0x02000002) -- CPU_ReadMem(2 bytes @ 0x400400C0) - Data: 00 00  returns 0x02 (0001ms, 98905ms total)
T3220 12873:109 JLINK_ReadMemEx(0x400400C2, 0x0002 Bytes, ..., Flags = 0x02000002) -- CPU_ReadMem(2 bytes @ 0x400400C2) - Data: 00 00  returns 0x02 (0000ms, 98905ms total)
T3220 12873:109 JLINK_ReadMemEx(0x400400CC, 0x0002 Bytes, ..., Flags = 0x02000002) -- CPU_ReadMem(2 bytes @ 0x400400CC) - Data: 00 00  returns 0x02 (0001ms, 98906ms total)
T3220 12873:110 JLINK_ReadMemEx(0x400400CE, 0x0002 Bytes, ..., Flags = 0x02000002) -- CPU_ReadMem(2 bytes @ 0x400400CE) - Data: 00 00  returns 0x02 (0000ms, 98906ms total)
T3220 12873:164 JLINK_ReadMemEx(0x4004E000, 0x0008 Bytes, ..., Flags = 0x02000004) -- CPU_ReadMem(8 bytes @ 0x4004E000) - Data: 00 00 00 00 00 00 00 00  returns 0x08 (0001ms, 98907ms total)
T3220 12873:165 JLINK_ReadMemEx(0x4004E008, 0x0004 Bytes, ..., Flags = 0x02000004) -- CPU_ReadMem(4 bytes @ 0x4004E008) - Data: 00 00 00 00  returns 0x04 (0002ms, 98909ms total)
T3220 12873:167 JLINK_ReadMemEx(0x4004E010, 0x000C Bytes, ..., Flags = 0x02000004) -- CPU_ReadMem(12 bytes @ 0x4004E010) - Data: 00 00 00 00 00 00 00 00 00 00 00 00  returns 0x0C (0001ms, 98910ms total)
T3220 12873:168 JLINK_ReadMemEx(0x4004E01C, 0x0004 Bytes, ..., Flags = 0x02000004) -- CPU_ReadMem(4 bytes @ 0x4004E01C) - Data: 00 00 00 00  returns 0x04 (0001ms, 98911ms total)
T3220 12873:169 JLINK_ReadMemEx(0x4004E028, 0x0008 Bytes, ..., Flags = 0x02000004) -- CPU_ReadMem(8 bytes @ 0x4004E028) - Data: 00 00 00 00 00 00 00 00  returns 0x08 (0002ms, 98913ms total)
T3220 12873:172 JLINK_ReadMemEx(0x4004E030, 0x0004 Bytes, ..., Flags = 0x02000004) -- CPU_ReadMem(4 bytes @ 0x4004E030) - Data: 00 00 00 00  returns 0x04 (0000ms, 98913ms total)
T3220 12873:232 JLINK_ReadMemEx(0x4004E400, 0x0008 Bytes, ..., Flags = 0x02000004) -- CPU_ReadMem(8 bytes @ 0x4004E400) - Data: 00 00 00 00 00 00 00 00  returns 0x08 (0001ms, 98914ms total)
T3220 12873:233 JLINK_ReadMemEx(0x4004E408, 0x0004 Bytes, ..., Flags = 0x02000004) -- CPU_ReadMem(4 bytes @ 0x4004E408) - Data: 00 00 00 00  returns 0x04 (0001ms, 98915ms total)
T3220 12873:234 JLINK_ReadMemEx(0x4004E410, 0x000C Bytes, ..., Flags = 0x02000004) -- CPU_ReadMem(12 bytes @ 0x4004E410) - Data: 00 00 00 00 00 00 00 00 00 00 00 00  returns 0x0C (0002ms, 98917ms total)
T3220 12873:236 JLINK_ReadMemEx(0x4004E41C, 0x0004 Bytes, ..., Flags = 0x02000004) -- CPU_ReadMem(4 bytes @ 0x4004E41C) - Data: 00 00 00 00  returns 0x04 (0001ms, 98918ms total)
T3220 12873:237 JLINK_ReadMemEx(0x4004E428, 0x0008 Bytes, ..., Flags = 0x02000004) -- CPU_ReadMem(8 bytes @ 0x4004E428) - Data: 00 00 00 00 00 00 00 00  returns 0x08 (0001ms, 98919ms total)
T3220 12873:238 JLINK_ReadMemEx(0x4004E430, 0x0004 Bytes, ..., Flags = 0x02000004) -- CPU_ReadMem(4 bytes @ 0x4004E430) - Data: 00 00 00 00  returns 0x04 (0002ms, 98921ms total)
T3220 12873:290 JLINK_ReadMemEx(0x40020000, 0x0004 Bytes, ..., Flags = 0x02000004) -- CPU_ReadMem(4 bytes @ 0x40020000) - Data: 00 00 00 00  returns 0x04 (0002ms, 98923ms total)
T3220 12873:292 JLINK_ReadMemEx(0x40020004, 0x0004 Bytes, ..., Flags = 0x02000004) -- CPU_ReadMem(4 bytes @ 0x40020004) - Data: 00 00 00 00  returns 0x04 (0000ms, 98923ms total)
T3220 12873:292 JLINK_ReadMemEx(0x4002000C, 0x0004 Bytes, ..., Flags = 0x02000004) -- CPU_ReadMem(4 bytes @ 0x4002000C) - Data: 00 00 00 00  returns 0x04 (0001ms, 98924ms total)
T3220 12873:293 JLINK_ReadMemEx(0x40020014, 0x0004 Bytes, ..., Flags = 0x02000004) -- CPU_ReadMem(4 bytes @ 0x40020014) - Data: 00 00 00 00  returns 0x04 (0001ms, 98925ms total)
T3220 12873:294 JLINK_ReadMemEx(0x40020018, 0x0004 Bytes, ..., Flags = 0x02000004) -- CPU_ReadMem(4 bytes @ 0x40020018) - Data: 00 00 00 00  returns 0x04 (0001ms, 98926ms total)
T3220 12875:632 JLINK_ReadMemEx(0x00000350, 0x003C Bytes, ..., Flags = 0x02000000) -- CPU_ReadMem(60 bytes @ 0x00000350) - Data: 10 48 4F F0 77 01 01 60 0F 48 4F F0 77 01 01 60 ...  returns 0x3C (0001ms, 98927ms total)
T3220 12875:633 JLINK_ReadMemEx(0x00000350, 0x0002 Bytes, ..., Flags = 0x02000000) -- CPU_ReadMem(2 bytes @ 0x00000350) - Data: 10 48  returns 0x02 (0001ms, 98928ms total)
T3220 12875:634 JLINK_ReadMemEx(0x00000352, 0x0002 Bytes, ..., Flags = 0x02000000) -- CPU_ReadMem(2 bytes @ 0x00000352) - Data: 4F F0  returns 0x02 (0001ms, 98929ms total)
T3220 12875:635 JLINK_ReadMemEx(0x00000352, 0x0002 Bytes, ..., Flags = 0x02000000) -- CPU_ReadMem(2 bytes @ 0x00000352) - Data: 4F F0  returns 0x02 (0001ms, 98930ms total)
T3220 12875:636 JLINK_ReadMemEx(0x00000354, 0x003C Bytes, ..., Flags = 0x02000000) -- CPU_ReadMem(60 bytes @ 0x00000354) - Data: 77 01 01 60 0F 48 4F F0 77 01 01 60 0E 48 4F F4 ...  returns 0x3C (0001ms, 98931ms total)
T3220 12875:637 JLINK_ReadMemEx(0x00000354, 0x0002 Bytes, ..., Flags = 0x02000000) -- CPU_ReadMem(2 bytes @ 0x00000354) - Data: 77 01  returns 0x02 (0001ms, 98932ms total)
T3220 12875:958 JLINK_ReadReg(R0)  returns 0x0000004E (0001ms, 98934ms total)
T3220 12875:959 JLINK_ReadReg(R1)  returns 0x00000000 (0000ms, 98934ms total)
T3220 12875:959 JLINK_ReadReg(R2)  returns 0x0000004E (0000ms, 98934ms total)
T3220 12875:959 JLINK_ReadReg(R3)  returns 0x1FFF8098 (0000ms, 98934ms total)
T3220 12875:959 JLINK_ReadReg(R4)  returns 0x00000CB2 (0000ms, 98934ms total)
T3220 12875:959 JLINK_ReadReg(R5)  returns 0x00000002 (0000ms, 98934ms total)
T3220 12875:959 JLINK_ReadReg(R6)  returns 0x00004D7A (0000ms, 98934ms total)
T3220 12875:959 JLINK_ReadReg(R7)  returns 0x00000000 (0000ms, 98934ms total)
T3220 12875:959 JLINK_ReadReg(R8)  returns 0x00000000 (0000ms, 98934ms total)
T3220 12875:959 JLINK_ReadReg(R9)  returns 0x1FFF8A74 (0000ms, 98934ms total)
T3220 12875:959 JLINK_ReadReg(R10)  returns 0x00000000 (0000ms, 98934ms total)
T3220 12875:959 JLINK_ReadReg(R11)  returns 0x00005B5D (0000ms, 98934ms total)
T3220 12875:959 JLINK_ReadReg(R12)  returns 0x00000000 (0000ms, 98934ms total)
T3220 12875:959 JLINK_ReadReg(R13 (SP))  returns 0x1FFFC5B0 (0000ms, 98934ms total)
T3220 12875:959 JLINK_ReadReg(R14)  returns 0xFFFFFFFF (0000ms, 98934ms total)
T3220 12875:959 JLINK_ReadReg(R15 (PC))  returns 0x00000350 (0001ms, 98935ms total)
T3220 12875:960 JLINK_ReadReg(XPSR)  returns 0x01000000 (0000ms, 98935ms total)
T3220 12875:960 JLINK_ReadReg(MSP)  returns 0x1FFFC5B0 (0000ms, 98935ms total)
T3220 12875:960 JLINK_ReadReg(PSP)  returns 0x1FFF89DC (0000ms, 98935ms total)
T3220 12875:960 JLINK_ReadReg(CFBP)  returns 0x00000000 (0000ms, 98935ms total)
T3220 12875:960 JLINK_ReadReg(FPSCR)  returns 0x00000000 (0005ms, 98940ms total)
T3220 12875:965 JLINK_ReadReg(FPS0)  returns 0x3E155600 (0000ms, 98940ms total)
T3220 12875:965 JLINK_ReadReg(FPS1)  returns 0x3727C5AC (0000ms, 98940ms total)
T3220 12875:965 JLINK_ReadReg(FPS2)  returns 0x4CA037A0 (0000ms, 98940ms total)
T3220 12875:965 JLINK_ReadReg(FPS3)  returns 0x5168FAB8 (0000ms, 98940ms total)
T3220 12875:965 JLINK_ReadReg(FPS4)  returns 0x3CC90AB1 (0000ms, 98940ms total)
T3220 12875:965 JLINK_ReadReg(FPS5)  returns 0x634F4C33 (0000ms, 98940ms total)
T3220 12875:965 JLINK_ReadReg(FPS6)  returns 0x3D16C32B (0000ms, 98940ms total)
T3220 12875:965 JLINK_ReadReg(FPS7)  returns 0xDE143436 (0000ms, 98940ms total)
T3220 12875:965 JLINK_ReadReg(FPS8)  returns 0x3F800000 (0000ms, 98940ms total)
T3220 12875:965 JLINK_ReadReg(FPS9)  returns 0xBBE9B2AD (0000ms, 98940ms total)
T3220 12875:965 JLINK_ReadReg(FPS10)  returns 0x2F3B7E3A (0000ms, 98940ms total)
T3220 12875:965 JLINK_ReadReg(FPS11)  returns 0x7F09836E (0000ms, 98940ms total)
T3220 12875:965 JLINK_ReadReg(FPS12)  returns 0xC36ECDCB (0000ms, 98940ms total)
T3220 12875:965 JLINK_ReadReg(FPS13)  returns 0xA5B4F54F (0000ms, 98940ms total)
T3220 12875:965 JLINK_ReadReg(FPS14)  returns 0xECBC335D (0001ms, 98941ms total)
T3220 12875:966 JLINK_ReadReg(FPS15)  returns 0x0C549128 (0000ms, 98941ms total)
T3220 12875:966 JLINK_ReadReg(FPS16)  returns 0x72656BCA (0000ms, 98941ms total)
T3220 12875:966 JLINK_ReadReg(FPS17)  returns 0x86EC5F35 (0000ms, 98941ms total)
T3220 12875:966 JLINK_ReadReg(FPS18)  returns 0x56FE6FCB (0000ms, 98941ms total)
T3220 12875:966 JLINK_ReadReg(FPS19)  returns 0xEB7BB3B5 (0000ms, 98941ms total)
T3220 12875:966 JLINK_ReadReg(FPS20)  returns 0xC9094F3D (0000ms, 98941ms total)
T3220 12875:966 JLINK_ReadReg(FPS21)  returns 0x32BF975E (0000ms, 98941ms total)
T3220 12875:966 JLINK_ReadReg(FPS22)  returns 0x27DF8BE7 (0000ms, 98941ms total)
T3220 12875:966 JLINK_ReadReg(FPS23)  returns 0xFFFF0623 (0000ms, 98941ms total)
T3220 12875:966 JLINK_ReadReg(FPS24)  returns 0x6E7C3A58 (0000ms, 98941ms total)
T3220 12875:966 JLINK_ReadReg(FPS25)  returns 0x17FA101F (0000ms, 98941ms total)
T3220 12875:966 JLINK_ReadReg(FPS26)  returns 0xE01A9EF1 (0000ms, 98941ms total)
T3220 12875:966 JLINK_ReadReg(FPS27)  returns 0x74EFAF38 (0000ms, 98941ms total)
T3220 12875:966 JLINK_ReadReg(FPS28)  returns 0x3398B53A (0000ms, 98941ms total)
T3220 12875:966 JLINK_ReadReg(FPS29)  returns 0xFCC4159B (0000ms, 98941ms total)
T3220 12875:966 JLINK_ReadReg(FPS30)  returns 0xBB1EDFBB (0000ms, 98941ms total)
T3220 12875:966 JLINK_ReadReg(FPS31)  returns 0xF2BD17DF (0000ms, 98941ms total)
T401C 12876:034 JLINK_ReadMemEx(0x00000350, 0x0002 Bytes, ..., Flags = 0x02000000) -- CPU_ReadMem(2 bytes @ 0x00000350) - Data: 10 48  returns 0x02 (0001ms, 98942ms total)
T401C 12876:035 JLINK_SetBPEx(Addr = 0x00005BD4, Type = 0xFFFFFFF2)  returns 0x00000001 (0000ms, 98942ms total)
T401C 12876:035 JLINK_SetBPEx(Addr = 0x00001440, Type = 0xFFFFFFF2)  returns 0x00000002 (0000ms, 98942ms total)
T401C 12876:035 JLINK_Go() -- CPU_WriteMem(4 bytes @ 0xE0002000) -- CPU_WriteMem(4 bytes @ 0xE0002000) -- CPU_ReadMem(4 bytes @ 0xE0001000) -- CPU_WriteMem(4 bytes @ 0xE0002008) -- CPU_WriteMem(4 bytes @ 0xE000200C) -- CPU_WriteMem(4 bytes @ 0xE0002010) -- CPU_WriteMem(4 bytes @ 0xE0002014) -- CPU_WriteMem(4 bytes @ 0xE0002018) -- CPU_WriteMem(4 bytes @ 0xE000201C) -- CPU_WriteMem(4 bytes @ 0xE0001004) (0006ms, 98948ms total)
T401C 12876:142 JLINK_IsHalted()  returns TRUE (0002ms, 98950ms total)
T401C 12876:145 JLINK_Halt()  returns 0x00 (0000ms, 98948ms total)
T401C 12876:145 JLINK_IsHalted()  returns TRUE (0000ms, 98948ms total)
T401C 12876:145 JLINK_IsHalted()  returns TRUE (0000ms, 98948ms total)
T401C 12876:145 JLINK_IsHalted()  returns TRUE (0000ms, 98948ms total)
T401C 12876:145 JLINK_ReadReg(R15 (PC))  returns 0x00005BD4 (0000ms, 98948ms total)
T401C 12876:145 JLINK_ReadReg(XPSR)  returns 0x61000000 (0000ms, 98948ms total)
T401C 12876:145 JLINK_ClrBPEx(BPHandle = 0x00000001)  returns 0x00 (0000ms, 98948ms total)
T401C 12876:145 JLINK_ClrBPEx(BPHandle = 0x00000002)  returns 0x00 (0000ms, 98948ms total)
T401C 12876:145 JLINK_ReadMemU32(0xE000ED30, 0x0001 Items, ...) -- CPU_ReadMem(4 bytes @ 0xE000ED30) - Data: 02 00 00 00  returns 1 (0001ms, 98949ms total)
T401C 12876:146 JLINK_ReadMemU32(0xE0001028, 0x0001 Items, ...) -- CPU_ReadMem(4 bytes @ 0xE0001028) - Data: 00 00 00 00  returns 1 (0001ms, 98950ms total)
T401C 12876:147 JLINK_ReadMemU32(0xE0001038, 0x0001 Items, ...) -- CPU_ReadMem(4 bytes @ 0xE0001038) - Data: 00 02 00 00  returns 1 (0001ms, 98951ms total)
T401C 12876:148 JLINK_ReadMemU32(0xE0001048, 0x0001 Items, ...) -- CPU_ReadMem(4 bytes @ 0xE0001048) - Data: 00 00 00 00  returns 1 (0000ms, 98951ms total)
T401C 12876:148 JLINK_ReadMemU32(0xE0001058, 0x0001 Items, ...) -- CPU_ReadMem(4 bytes @ 0xE0001058) - Data: 00 00 00 00  returns 1 (0001ms, 98952ms total)
T401C 12876:149 JLINK_ReadReg(R0)  returns 0x00005BD5 (0000ms, 98952ms total)
T401C 12876:149 JLINK_ReadReg(R1)  returns 0x1FFFC5B0 (0000ms, 98952ms total)
T401C 12876:149 JLINK_ReadReg(R2)  returns 0x00000000 (0000ms, 98952ms total)
T401C 12876:150 JLINK_ReadReg(R3)  returns 0x00005213 (0000ms, 98953ms total)
T401C 12876:150 JLINK_ReadReg(R4)  returns 0x00006B7C (0000ms, 98953ms total)
T401C 12876:150 JLINK_ReadReg(R5)  returns 0x00006B7C (0000ms, 98953ms total)
T401C 12876:150 JLINK_ReadReg(R6)  returns 0x00004D7A (0000ms, 98953ms total)
T401C 12876:150 JLINK_ReadReg(R7)  returns 0x00000000 (0000ms, 98953ms total)
T401C 12876:150 JLINK_ReadReg(R8)  returns 0x00000000 (0000ms, 98953ms total)
T401C 12876:150 JLINK_ReadReg(R9)  returns 0x1FFF8A74 (0000ms, 98953ms total)
T401C 12876:150 JLINK_ReadReg(R10)  returns 0x00000000 (0000ms, 98953ms total)
T401C 12876:150 JLINK_ReadReg(R11)  returns 0x00005B5D (0000ms, 98953ms total)
T401C 12876:150 JLINK_ReadReg(R12)  returns 0x00000000 (0000ms, 98953ms total)
T401C 12876:150 JLINK_ReadReg(R13 (SP))  returns 0x1FFFC5B0 (0000ms, 98953ms total)
T401C 12876:150 JLINK_ReadReg(R14)  returns 0x0000092D (0000ms, 98953ms total)
T401C 12876:150 JLINK_ReadReg(R15 (PC))  returns 0x00005BD4 (0000ms, 98953ms total)
T401C 12876:150 JLINK_ReadReg(XPSR)  returns 0x61000000 (0000ms, 98953ms total)
T401C 12876:150 JLINK_ReadReg(MSP)  returns 0x1FFFC5B0 (0000ms, 98953ms total)
T401C 12876:150 JLINK_ReadReg(PSP)  returns 0x1FFF89DC (0000ms, 98953ms total)
T401C 12876:150 JLINK_ReadReg(CFBP)  returns 0x00000000 (0000ms, 98953ms total)
T401C 12876:150 JLINK_ReadReg(FPSCR)  returns 0x00000000 (0004ms, 98957ms total)
T401C 12876:154 JLINK_ReadReg(FPS0)  returns 0x3E155600 (0000ms, 98957ms total)
T401C 12876:154 JLINK_ReadReg(FPS1)  returns 0x3727C5AC (0000ms, 98957ms total)
T401C 12876:154 JLINK_ReadReg(FPS2)  returns 0x4CA037A0 (0000ms, 98957ms total)
T401C 12876:154 JLINK_ReadReg(FPS3)  returns 0x5168FAB8 (0000ms, 98957ms total)
T401C 12876:154 JLINK_ReadReg(FPS4)  returns 0x3CC90AB1 (0000ms, 98957ms total)
T401C 12876:154 JLINK_ReadReg(FPS5)  returns 0x634F4C33 (0001ms, 98958ms total)
T401C 12876:155 JLINK_ReadReg(FPS6)  returns 0x3D16C32B (0000ms, 98958ms total)
T401C 12876:155 JLINK_ReadReg(FPS7)  returns 0xDE143436 (0000ms, 98958ms total)
T401C 12876:155 JLINK_ReadReg(FPS8)  returns 0x3F800000 (0000ms, 98958ms total)
T401C 12876:155 JLINK_ReadReg(FPS9)  returns 0xBBE9B2AD (0000ms, 98958ms total)
T401C 12876:155 JLINK_ReadReg(FPS10)  returns 0x2F3B7E3A (0000ms, 98958ms total)
T401C 12876:155 JLINK_ReadReg(FPS11)  returns 0x7F09836E (0000ms, 98958ms total)
T401C 12876:155 JLINK_ReadReg(FPS12)  returns 0xC36ECDCB (0000ms, 98958ms total)
T401C 12876:155 JLINK_ReadReg(FPS13)  returns 0xA5B4F54F (0000ms, 98958ms total)
T401C 12876:155 JLINK_ReadReg(FPS14)  returns 0xECBC335D (0000ms, 98958ms total)
T401C 12876:155 JLINK_ReadReg(FPS15)  returns 0x0C549128 (0000ms, 98958ms total)
T401C 12876:155 JLINK_ReadReg(FPS16)  returns 0x72656BCA (0000ms, 98958ms total)
T401C 12876:155 JLINK_ReadReg(FPS17)  returns 0x86EC5F35 (0000ms, 98958ms total)
T401C 12876:155 JLINK_ReadReg(FPS18)  returns 0x56FE6FCB (0000ms, 98958ms total)
T401C 12876:155 JLINK_ReadReg(FPS19)  returns 0xEB7BB3B5 (0000ms, 98958ms total)
T401C 12876:155 JLINK_ReadReg(FPS20)  returns 0xC9094F3D (0000ms, 98958ms total)
T401C 12876:155 JLINK_ReadReg(FPS21)  returns 0x32BF975E (0000ms, 98958ms total)
T401C 12876:155 JLINK_ReadReg(FPS22)  returns 0x27DF8BE7 (0000ms, 98958ms total)
T401C 12876:155 JLINK_ReadReg(FPS23)  returns 0xFFFF0623 (0000ms, 98958ms total)
T401C 12876:155 JLINK_ReadReg(FPS24)  returns 0x6E7C3A58 (0001ms, 98959ms total)
T401C 12876:156 JLINK_ReadReg(FPS25)  returns 0x17FA101F (0000ms, 98959ms total)
T401C 12876:156 JLINK_ReadReg(FPS26)  returns 0xE01A9EF1 (0000ms, 98959ms total)
T401C 12876:156 JLINK_ReadReg(FPS27)  returns 0x74EFAF38 (0000ms, 98959ms total)
T401C 12876:156 JLINK_ReadReg(FPS28)  returns 0x3398B53A (0000ms, 98959ms total)
T401C 12876:156 JLINK_ReadReg(FPS29)  returns 0xFCC4159B (0000ms, 98959ms total)
T401C 12876:156 JLINK_ReadReg(FPS30)  returns 0xBB1EDFBB (0000ms, 98959ms total)
T401C 12876:156 JLINK_ReadReg(FPS31)  returns 0xF2BD17DF (0000ms, 98959ms total)
T3220 12876:159 JLINK_ReadMemEx(0x40040000, 0x0001 Bytes, ..., Flags = 0x02000001) -- CPU_ReadMem(1 bytes @ 0x40040000) - Data: 00  returns 0x01 (0001ms, 98960ms total)
T3220 12876:160 JLINK_ReadMemEx(0x40040002, 0x0002 Bytes, ..., Flags = 0x02000002) -- CPU_ReadMem(2 bytes @ 0x40040002) - Data: 00 00  returns 0x02 (0001ms, 98961ms total)
T3220 12876:161 JLINK_ReadMemEx(0x40040004, 0x0002 Bytes, ..., Flags = 0x02000002) -- CPU_ReadMem(2 bytes @ 0x40040004) - Data: 00 00  returns 0x02 (0000ms, 98961ms total)
T3220 12876:161 JLINK_ReadMemEx(0x4004000A, 0x000C Bytes, ..., Flags = 0x02000002) -- CPU_ReadMem(12 bytes @ 0x4004000A) - Data: 00 00 00 00 00 00 00 00 00 00 00 00  returns 0x0C (0001ms, 98962ms total)
T3220 12876:162 JLINK_ReadMemEx(0x40040016, 0x0002 Bytes, ..., Flags = 0x02000002) -- CPU_ReadMem(2 bytes @ 0x40040016) - Data: 00 00  returns 0x02 (0001ms, 98963ms total)
T3220 12876:163 JLINK_ReadMemEx(0x40040020, 0x0010 Bytes, ..., Flags = 0x02000001) -- CPU_ReadMem(16 bytes @ 0x40040020) - Data: 00 00 00 00 00 00 00 00 00 00 00 00 00 00 00 00  returns 0x10 (0001ms, 98964ms total)
T3220 12876:164 JLINK_ReadMemEx(0x40040030, 0x0001 Bytes, ..., Flags = 0x02000001) -- CPU_ReadMem(1 bytes @ 0x40040030) - Data: 00  returns 0x01 (0001ms, 98965ms total)
T3220 12876:165 JLINK_ReadMemEx(0x40040038, 0x0006 Bytes, ..., Flags = 0x02000002) -- CPU_ReadMem(6 bytes @ 0x40040038) - Data: 00 00 00 00 00 00  returns 0x06 (0001ms, 98966ms total)
T3220 12876:166 JLINK_ReadMemEx(0x4004003E, 0x0002 Bytes, ..., Flags = 0x02000002) -- CPU_ReadMem(2 bytes @ 0x4004003E) - Data: 00 00  returns 0x02 (0001ms, 98967ms total)
T3220 12876:167 JLINK_ReadMemEx(0x40040046, 0x0001 Bytes, ..., Flags = 0x02000001) -- CPU_ReadMem(1 bytes @ 0x40040046) - Data: 00  returns 0x01 (0000ms, 98967ms total)
T3220 12876:167 JLINK_ReadMemEx(0x40040047, 0x0001 Bytes, ..., Flags = 0x02000001) -- CPU_ReadMem(1 bytes @ 0x40040047) - Data: 00  returns 0x01 (0001ms, 98968ms total)
T3220 12876:168 JLINK_ReadMemEx(0x4004004C, 0x0002 Bytes, ..., Flags = 0x02000002) -- CPU_ReadMem(2 bytes @ 0x4004004C) - Data: 00 00  returns 0x02 (0001ms, 98969ms total)
T3220 12876:169 JLINK_ReadMemEx(0x40040050, 0x0020 Bytes, ..., Flags = 0x02000002) -- CPU_ReadMem(32 bytes @ 0x40040050) - Data: 00 00 00 00 00 00 00 00 00 00 00 00 00 00 00 00 ...  returns 0x20 (0001ms, 98970ms total)
T3220 12876:170 JLINK_ReadMemEx(0x40040070, 0x0002 Bytes, ..., Flags = 0x02000002) -- CPU_ReadMem(2 bytes @ 0x40040070) - Data: 00 00  returns 0x02 (0001ms, 98971ms total)
T3220 12876:171 JLINK_ReadMemEx(0x400400A0, 0x0002 Bytes, ..., Flags = 0x02000002) -- CPU_ReadMem(2 bytes @ 0x400400A0) - Data: 00 00  returns 0x02 (0001ms, 98972ms total)
T3220 12876:172 JLINK_ReadMemEx(0x400400A4, 0x0002 Bytes, ..., Flags = 0x02000002) -- CPU_ReadMem(2 bytes @ 0x400400A4) - Data: 00 00  returns 0x02 (0000ms, 98972ms total)
T3220 12876:172 JLINK_ReadMemEx(0x400400A6, 0x0002 Bytes, ..., Flags = 0x02000002) -- CPU_ReadMem(2 bytes @ 0x400400A6) - Data: 00 00  returns 0x02 (0001ms, 98973ms total)
T3220 12876:173 JLINK_ReadMemEx(0x400400AC, 0x0006 Bytes, ..., Flags = 0x02000002) -- CPU_ReadMem(6 bytes @ 0x400400AC) - Data: 00 00 00 00 00 00  returns 0x06 (0001ms, 98974ms total)
T3220 12876:174 JLINK_ReadMemEx(0x400400B2, 0x0002 Bytes, ..., Flags = 0x02000002) -- CPU_ReadMem(2 bytes @ 0x400400B2) - Data: 00 00  returns 0x02 (0001ms, 98975ms total)
T3220 12876:175 JLINK_ReadMemEx(0x400400C0, 0x0002 Bytes, ..., Flags = 0x02000002) -- CPU_ReadMem(2 bytes @ 0x400400C0) - Data: 00 00  returns 0x02 (0000ms, 98975ms total)
T3220 12876:175 JLINK_ReadMemEx(0x400400C2, 0x0002 Bytes, ..., Flags = 0x02000002) -- CPU_ReadMem(2 bytes @ 0x400400C2) - Data: 00 00  returns 0x02 (0001ms, 98976ms total)
T3220 12876:176 JLINK_ReadMemEx(0x400400CC, 0x0002 Bytes, ..., Flags = 0x02000002) -- CPU_ReadMem(2 bytes @ 0x400400CC) - Data: 00 00  returns 0x02 (0001ms, 98977ms total)
T3220 12876:177 JLINK_ReadMemEx(0x400400CE, 0x0002 Bytes, ..., Flags = 0x02000002) -- CPU_ReadMem(2 bytes @ 0x400400CE) - Data: 00 00  returns 0x02 (0001ms, 98978ms total)
T3220 12876:179 JLINK_ReadMemEx(0x40020000, 0x0004 Bytes, ..., Flags = 0x02000004) -- CPU_ReadMem(4 bytes @ 0x40020000) - Data: 00 00 00 00  returns 0x04 (0000ms, 98978ms total)
T3220 12876:179 JLINK_ReadMemEx(0x40020004, 0x0004 Bytes, ..., Flags = 0x02000004) -- CPU_ReadMem(4 bytes @ 0x40020004) - Data: 00 00 00 00  returns 0x04 (0001ms, 98979ms total)
T3220 12876:180 JLINK_ReadMemEx(0x4002000C, 0x0004 Bytes, ..., Flags = 0x02000004) -- CPU_ReadMem(4 bytes @ 0x4002000C) - Data: 00 00 00 00  returns 0x04 (0001ms, 98980ms total)
T3220 12876:181 JLINK_ReadMemEx(0x40020014, 0x0004 Bytes, ..., Flags = 0x02000004) -- CPU_ReadMem(4 bytes @ 0x40020014) - Data: 00 00 00 00  returns 0x04 (0001ms, 98981ms total)
T3220 12876:182 JLINK_ReadMemEx(0x40020018, 0x0004 Bytes, ..., Flags = 0x02000004) -- CPU_ReadMem(4 bytes @ 0x40020018) - Data: 00 00 00 00  returns 0x04 (0000ms, 98981ms total)
T3220 12876:183 JLINK_ReadMemEx(0x4004E400, 0x0008 Bytes, ..., Flags = 0x02000004) -- CPU_ReadMem(8 bytes @ 0x4004E400) - Data: 00 00 00 00 00 00 00 00  returns 0x08 (0001ms, 98982ms total)
T3220 12876:184 JLINK_ReadMemEx(0x4004E408, 0x0004 Bytes, ..., Flags = 0x02000004) -- CPU_ReadMem(4 bytes @ 0x4004E408) - Data: 00 00 00 00  returns 0x04 (0001ms, 98983ms total)
T3220 12876:185 JLINK_ReadMemEx(0x4004E410, 0x000C Bytes, ..., Flags = 0x02000004) -- CPU_ReadMem(12 bytes @ 0x4004E410) - Data: 00 00 00 00 00 00 00 00 00 00 00 00  returns 0x0C (0000ms, 98983ms total)
T3220 12876:185 JLINK_ReadMemEx(0x4004E41C, 0x0004 Bytes, ..., Flags = 0x02000004) -- CPU_ReadMem(4 bytes @ 0x4004E41C) - Data: 00 00 00 00  returns 0x04 (0001ms, 98984ms total)
T3220 12876:186 JLINK_ReadMemEx(0x4004E428, 0x0008 Bytes, ..., Flags = 0x02000004) -- CPU_ReadMem(8 bytes @ 0x4004E428) - Data: 00 00 00 00 00 00 00 00  returns 0x08 (0001ms, 98985ms total)
T3220 12876:187 JLINK_ReadMemEx(0x4004E430, 0x0004 Bytes, ..., Flags = 0x02000004) -- CPU_ReadMem(4 bytes @ 0x4004E430) - Data: 00 00 00 00  returns 0x04 (0001ms, 98986ms total)
T3220 12876:188 JLINK_ReadMemEx(0x4004E000, 0x0008 Bytes, ..., Flags = 0x02000004) -- CPU_ReadMem(8 bytes @ 0x4004E000) - Data: 00 00 00 00 00 00 00 00  returns 0x08 (0001ms, 98987ms total)
T3220 12876:189 JLINK_ReadMemEx(0x4004E008, 0x0004 Bytes, ..., Flags = 0x02000004) -- CPU_ReadMem(4 bytes @ 0x4004E008) - Data: 00 00 00 00  returns 0x04 (0001ms, 98988ms total)
T3220 12876:190 JLINK_ReadMemEx(0x4004E010, 0x000C Bytes, ..., Flags = 0x02000004) -- CPU_ReadMem(12 bytes @ 0x4004E010) - Data: 00 00 00 00 00 00 00 00 00 00 00 00  returns 0x0C (0001ms, 98989ms total)
T3220 12876:191 JLINK_ReadMemEx(0x4004E01C, 0x0004 Bytes, ..., Flags = 0x02000004) -- CPU_ReadMem(4 bytes @ 0x4004E01C) - Data: 00 00 00 00  returns 0x04 (0001ms, 98990ms total)
T3220 12876:192 JLINK_ReadMemEx(0x4004E028, 0x0008 Bytes, ..., Flags = 0x02000004) -- CPU_ReadMem(8 bytes @ 0x4004E028) - Data: 00 00 00 00 00 00 00 00  returns 0x08 (0000ms, 98990ms total)
T3220 12876:192 JLINK_ReadMemEx(0x4004E030, 0x0004 Bytes, ..., Flags = 0x02000004) -- CPU_ReadMem(4 bytes @ 0x4004E030) - Data: 00 00 00 00  returns 0x04 (0001ms, 98991ms total)
T3220 12876:197 JLINK_ReadMemEx(0x00005BD4, 0x003C Bytes, ..., Flags = 0x02000000) -- CPU_ReadMem(128 bytes @ 0x00005BC0) -- Updating DA cache (128 bytes @ 0x00005BC0) -- Read from DA cache (60 bytes @ 0x00005BD4) - Data: 25 48 00 68 40 F4 70 00 23 49 08 60 00 F0 32 FB ...  returns 0x3C (0002ms, 98993ms total)
T3220 12876:199 JLINK_ReadMemEx(0x00005BD4, 0x0002 Bytes, ..., Flags = 0x02000000) -- Read from DA cache (2 bytes @ 0x00005BD4) - Data: 25 48  returns 0x02 (0000ms, 98993ms total)
T3220 12876:199 JLINK_ReadMemEx(0x00005BD6, 0x0002 Bytes, ..., Flags = 0x02000000) -- Read from DA cache (2 bytes @ 0x00005BD6) - Data: 00 68  returns 0x02 (0000ms, 98993ms total)
T3220 12876:199 JLINK_ReadMemEx(0x00005BD6, 0x0002 Bytes, ..., Flags = 0x02000000) -- Read from DA cache (2 bytes @ 0x00005BD6) - Data: 00 68  returns 0x02 (0000ms, 98993ms total)
T3220 12876:199 JLINK_ReadMemEx(0x00005BD8, 0x003C Bytes, ..., Flags = 0x02000000) -- Read from DA cache (60 bytes @ 0x00005BD8) - Data: 40 F4 70 00 23 49 08 60 00 F0 32 FB 22 48 FA F7 ...  returns 0x3C (0000ms, 98993ms total)
T3220 12876:199 JLINK_ReadMemEx(0x00005BD8, 0x0002 Bytes, ..., Flags = 0x02000000) -- Read from DA cache (2 bytes @ 0x00005BD8) - Data: 40 F4  returns 0x02 (0000ms, 98993ms total)
T401C 12877:730 JLINK_ReadMemEx(0x00005BD4, 0x0002 Bytes, ..., Flags = 0x02000000) -- Read from DA cache (2 bytes @ 0x00005BD4) - Data: 25 48  returns 0x02 (0000ms, 98993ms total)
T401C 12877:730 JLINK_SetBPEx(Addr = 0x00001440, Type = 0xFFFFFFF2)  returns 0x00000003 (0000ms, 98993ms total)
T401C 12877:730 JLINK_Go() -- CPU_WriteMem(4 bytes @ 0xE0002000) -- CPU_ReadMem(4 bytes @ 0xE0001000) -- CPU_WriteMem(4 bytes @ 0xE0002008) -- CPU_WriteMem(4 bytes @ 0xE000200C) (0004ms, 98997ms total)
T401C 12877:835 JLINK_IsHalted()  returns FALSE (0001ms, 98998ms total)
T401C 12877:937 JLINK_IsHalted()  returns TRUE (0004ms, 99001ms total)
T401C 12877:941 JLINK_Halt()  returns 0x00 (0000ms, 98997ms total)
T401C 12877:941 JLINK_IsHalted()  returns TRUE (0000ms, 98997ms total)
T401C 12877:941 JLINK_IsHalted()  returns TRUE (0000ms, 98997ms total)
T401C 12877:941 JLINK_IsHalted()  returns TRUE (0000ms, 98997ms total)
T401C 12877:941 JLINK_ReadReg(R15 (PC))  returns 0x00001440 (0000ms, 98997ms total)
T401C 12877:941 JLINK_ReadReg(XPSR)  returns 0x61000018 (0000ms, 98997ms total)
T401C 12877:941 JLINK_ClrBPEx(BPHandle = 0x00000003)  returns 0x00 (0000ms, 98997ms total)
T401C 12877:941 JLINK_ReadMemU32(0xE000ED30, 0x0001 Items, ...) -- CPU_ReadMem(4 bytes @ 0xE000ED30) - Data: 02 00 00 00  returns 1 (0001ms, 98998ms total)
T401C 12877:942 JLINK_ReadMemU32(0xE0001028, 0x0001 Items, ...) -- CPU_ReadMem(4 bytes @ 0xE0001028) - Data: 00 00 00 00  returns 1 (0001ms, 98999ms total)
T401C 12877:943 JLINK_ReadMemU32(0xE0001038, 0x0001 Items, ...) -- CPU_ReadMem(4 bytes @ 0xE0001038) - Data: 00 02 00 00  returns 1 (0001ms, 99000ms total)
T401C 12877:944 JLINK_ReadMemU32(0xE0001048, 0x0001 Items, ...) -- CPU_ReadMem(4 bytes @ 0xE0001048) - Data: 00 00 00 00  returns 1 (0001ms, 99001ms total)
T401C 12877:945 JLINK_ReadMemU32(0xE0001058, 0x0001 Items, ...) -- CPU_ReadMem(4 bytes @ 0xE0001058) - Data: 00 00 00 00  returns 1 (0001ms, 99002ms total)
T401C 12877:946 JLINK_ReadReg(R0)  returns 0x00000CB2 (0000ms, 99002ms total)
T401C 12877:946 JLINK_ReadReg(R1)  returns 0x1FFF8034 (0000ms, 99002ms total)
T401C 12877:946 JLINK_ReadReg(R2)  returns 0x00000041 (0000ms, 99002ms total)
T401C 12877:946 JLINK_ReadReg(R3)  returns 0x1FFF8098 (0000ms, 99002ms total)
T401C 12877:946 JLINK_ReadReg(R4)  returns 0xFFFFFC18 (0000ms, 99002ms total)
T401C 12877:946 JLINK_ReadReg(R5)  returns 0x00000000 (0000ms, 99002ms total)
T401C 12877:946 JLINK_ReadReg(R6)  returns 0x00004D78 (0000ms, 99002ms total)
T401C 12877:946 JLINK_ReadReg(R7)  returns 0x00000000 (0000ms, 99002ms total)
T401C 12877:946 JLINK_ReadReg(R8)  returns 0x00000000 (0000ms, 99002ms total)
T401C 12877:946 JLINK_ReadReg(R9)  returns 0x1FFF8A74 (0000ms, 99002ms total)
T401C 12877:946 JLINK_ReadReg(R10)  returns 0x00000000 (0000ms, 99002ms total)
T401C 12877:946 JLINK_ReadReg(R11)  returns 0x00005B5D (0001ms, 99003ms total)
T401C 12877:947 JLINK_ReadReg(R12)  returns 0x00000000 (0000ms, 99003ms total)
T401C 12877:947 JLINK_ReadReg(R13 (SP))  returns 0x1FFFC580 (0000ms, 99003ms total)
T401C 12877:947 JLINK_ReadReg(R14)  returns 0x00001439 (0000ms, 99003ms total)
T401C 12877:947 JLINK_ReadReg(R15 (PC))  returns 0x00001440 (0000ms, 99003ms total)
T401C 12877:947 JLINK_ReadReg(XPSR)  returns 0x61000018 (0000ms, 99003ms total)
T401C 12877:947 JLINK_ReadReg(MSP)  returns 0x1FFFC580 (0000ms, 99003ms total)
T401C 12877:947 JLINK_ReadReg(PSP)  returns 0x1FFF89B8 (0000ms, 99003ms total)
T401C 12877:947 JLINK_ReadReg(CFBP)  returns 0x00005000 (0000ms, 99003ms total)
T401C 12877:947 JLINK_ReadReg(FPSCR)  returns 0x00000000 (0004ms, 99007ms total)
T401C 12877:952 JLINK_ReadReg(FPS0)  returns 0x3E155600 (0000ms, 99007ms total)
T401C 12877:952 JLINK_ReadReg(FPS1)  returns 0x3727C5AC (0000ms, 99007ms total)
T401C 12877:952 JLINK_ReadReg(FPS2)  returns 0x4CA037A0 (0000ms, 99007ms total)
T401C 12877:952 JLINK_ReadReg(FPS3)  returns 0x5168FAB8 (0000ms, 99007ms total)
T401C 12877:952 JLINK_ReadReg(FPS4)  returns 0x3CC90AB1 (0000ms, 99007ms total)
T401C 12877:952 JLINK_ReadReg(FPS5)  returns 0x634F4C33 (0000ms, 99007ms total)
T401C 12877:952 JLINK_ReadReg(FPS6)  returns 0x3D16C32B (0000ms, 99007ms total)
T401C 12877:952 JLINK_ReadReg(FPS7)  returns 0xDE143436 (0000ms, 99007ms total)
T401C 12877:952 JLINK_ReadReg(FPS8)  returns 0x3F800000 (0000ms, 99007ms total)
T401C 12877:952 JLINK_ReadReg(FPS9)  returns 0xBBE9B2AD (0000ms, 99007ms total)
T401C 12877:952 JLINK_ReadReg(FPS10)  returns 0x2F3B7E3A (0000ms, 99007ms total)
T401C 12877:952 JLINK_ReadReg(FPS11)  returns 0x7F09836E (0000ms, 99007ms total)
T401C 12877:952 JLINK_ReadReg(FPS12)  returns 0xC36ECDCB (0000ms, 99007ms total)
T401C 12877:952 JLINK_ReadReg(FPS13)  returns 0xA5B4F54F (0000ms, 99007ms total)
T401C 12877:952 JLINK_ReadReg(FPS14)  returns 0xECBC335D (0000ms, 99007ms total)
T401C 12877:952 JLINK_ReadReg(FPS15)  returns 0x0C549128 (0000ms, 99007ms total)
T401C 12877:952 JLINK_ReadReg(FPS16)  returns 0x72656BCA (0000ms, 99007ms total)
T401C 12877:952 JLINK_ReadReg(FPS17)  returns 0x86EC5F35 (0000ms, 99007ms total)
T401C 12877:952 JLINK_ReadReg(FPS18)  returns 0x56FE6FCB (0000ms, 99007ms total)
T401C 12877:952 JLINK_ReadReg(FPS19)  returns 0xEB7BB3B5 (0000ms, 99007ms total)
T401C 12877:952 JLINK_ReadReg(FPS20)  returns 0xC9094F3D (0000ms, 99007ms total)
T401C 12877:952 JLINK_ReadReg(FPS21)  returns 0x32BF975E (0000ms, 99007ms total)
T401C 12877:952 JLINK_ReadReg(FPS22)  returns 0x27DF8BE7 (0000ms, 99007ms total)
T401C 12877:953 JLINK_ReadReg(FPS23)  returns 0xFFFF0623 (0000ms, 99008ms total)
T401C 12877:953 JLINK_ReadReg(FPS24)  returns 0x6E7C3A58 (0000ms, 99008ms total)
T401C 12877:953 JLINK_ReadReg(FPS25)  returns 0x17FA101F (0000ms, 99008ms total)
T401C 12877:953 JLINK_ReadReg(FPS26)  returns 0xE01A9EF1 (0000ms, 99008ms total)
T401C 12877:953 JLINK_ReadReg(FPS27)  returns 0x74EFAF38 (0000ms, 99008ms total)
T401C 12877:953 JLINK_ReadReg(FPS28)  returns 0x3398B53A (0000ms, 99008ms total)
T401C 12877:953 JLINK_ReadReg(FPS29)  returns 0xFCC4159B (0000ms, 99008ms total)
T401C 12877:953 JLINK_ReadReg(FPS30)  returns 0xBB1EDFBB (0000ms, 99008ms total)
T401C 12877:953 JLINK_ReadReg(FPS31)  returns 0xF2BD17DF (0000ms, 99008ms total)
T3220 12877:953 JLINK_ReadMemEx(0x1FFFC584, 0x0004 Bytes, ..., Flags = 0x02000000) -- CPU_ReadMem(4 bytes @ 0x1FFFC584) - Data: 5B 21 00 00  returns 0x04 (0001ms, 99009ms total)
T3220 12877:955 JLINK_ReadMemEx(0x1FFFC580, 0x0004 Bytes, ..., Flags = 0x02000000) -- CPU_ReadMem(4 bytes @ 0x1FFFC580) - Data: 18 FC FF FF  returns 0x04 (0002ms, 99011ms total)
T3220 12877:957 JLINK_ReadMemEx(0x1FFFC584, 0x0004 Bytes, ..., Flags = 0x02000000) -- CPU_ReadMem(4 bytes @ 0x1FFFC584) - Data: 5B 21 00 00  returns 0x04 (0001ms, 99012ms total)
T3220 12877:958 JLINK_ReadMemEx(0x1FFFC58C, 0x0004 Bytes, ..., Flags = 0x02000000) -- CPU_ReadMem(4 bytes @ 0x1FFFC58C) - Data: FD FF FF FF  returns 0x04 (0001ms, 99013ms total)
T3220 12877:959 JLINK_ReadMemEx(0x1FFF89D0, 0x0004 Bytes, ..., Flags = 0x02000000) -- CPU_ReadMem(4 bytes @ 0x1FFF89D0) - Data: 66 1A 00 00  returns 0x04 (0001ms, 99014ms total)
T3220 12877:960 JLINK_ReadMemEx(0x1FFF89D4, 0x0004 Bytes, ..., Flags = 0x02000000) -- CPU_ReadMem(4 bytes @ 0x1FFF89D4) - Data: 00 02 00 61  returns 0x04 (0001ms, 99015ms total)
T3220 12877:961 JLINK_ReadMemEx(0x1FFF89CC, 0x0004 Bytes, ..., Flags = 0x02000000) -- CPU_ReadMem(4 bytes @ 0x1FFF89CC) - Data: 69 5B 00 00  returns 0x04 (0001ms, 99016ms total)
T3220 12877:962 JLINK_ReadMemEx(0xE000ED28, 0x0004 Bytes, ..., Flags = 0x02000000) -- CPU_ReadMem(4 bytes @ 0xE000ED28) - Data: 00 00 00 00  returns 0x04 (0002ms, 99018ms total)
T3220 12877:964 JLINK_ReadMemEx(0x1FFF89D0, 0x0004 Bytes, ..., Flags = 0x02000000) -- CPU_ReadMem(4 bytes @ 0x1FFF89D0) - Data: 66 1A 00 00  returns 0x04 (0001ms, 99019ms total)
T3220 12877:965 JLINK_ReadMemEx(0x1FFF89D4, 0x0004 Bytes, ..., Flags = 0x02000000) -- CPU_ReadMem(4 bytes @ 0x1FFF89D4) - Data: 00 02 00 61  returns 0x04 (0001ms, 99020ms total)
T3220 12877:969 JLINK_ReadMemEx(0x40040000, 0x0001 Bytes, ..., Flags = 0x02000001) -- CPU_ReadMem(1 bytes @ 0x40040000) - Data: 00  returns 0x01 (0000ms, 99020ms total)
T3220 12877:969 JLINK_ReadMemEx(0x40040002, 0x0002 Bytes, ..., Flags = 0x02000002) -- CPU_ReadMem(2 bytes @ 0x40040002) - Data: 40 00  returns 0x02 (0002ms, 99022ms total)
T3220 12877:971 JLINK_ReadMemEx(0x40040004, 0x0002 Bytes, ..., Flags = 0x02000002) -- CPU_ReadMem(2 bytes @ 0x40040004) - Data: 00 00  returns 0x02 (0001ms, 99023ms total)
T3220 12877:972 JLINK_ReadMemEx(0x4004000A, 0x000C Bytes, ..., Flags = 0x02000002) -- CPU_ReadMem(12 bytes @ 0x4004000A) - Data: 00 00 00 04 00 00 00 00 00 00 00 00  returns 0x0C (0001ms, 99024ms total)
T3220 12877:973 JLINK_ReadMemEx(0x40040016, 0x0002 Bytes, ..., Flags = 0x02000002) -- CPU_ReadMem(2 bytes @ 0x40040016) - Data: 00 00  returns 0x02 (0001ms, 99025ms total)
T3220 12877:974 JLINK_ReadMemEx(0x40040020, 0x0010 Bytes, ..., Flags = 0x02000001) -- CPU_ReadMem(16 bytes @ 0x40040020) - Data: 0B 0B 0B 0B 0B 0B 0B 0B 0B 0B FF 0B 0B 0B 0B 0B  returns 0x10 (0001ms, 99026ms total)
T3220 12877:975 JLINK_ReadMemEx(0x40040030, 0x0001 Bytes, ..., Flags = 0x02000001) -- CPU_ReadMem(1 bytes @ 0x40040030) - Data: 0B  returns 0x01 (0001ms, 99027ms total)
T3220 12877:976 JLINK_ReadMemEx(0x40040038, 0x0006 Bytes, ..., Flags = 0x02000002) -- CPU_ReadMem(6 bytes @ 0x40040038) - Data: 10 32 54 76 98 BA  returns 0x06 (0002ms, 99029ms total)
T3220 12877:978 JLINK_ReadMemEx(0x4004003E, 0x0002 Bytes, ..., Flags = 0x02000002) -- CPU_ReadMem(2 bytes @ 0x4004003E) - Data: DC FE  returns 0x02 (0001ms, 99030ms total)
T3220 12877:980 JLINK_ReadMemEx(0x40040046, 0x0001 Bytes, ..., Flags = 0x02000001) -- CPU_ReadMem(1 bytes @ 0x40040046) - Data: 01  returns 0x01 (0002ms, 99032ms total)
T3220 12877:982 JLINK_ReadMemEx(0x40040047, 0x0001 Bytes, ..., Flags = 0x02000001) -- CPU_ReadMem(1 bytes @ 0x40040047) - Data: 01  returns 0x01 (0001ms, 99033ms total)
T3220 12877:983 JLINK_ReadMemEx(0x4004004C, 0x0002 Bytes, ..., Flags = 0x02000002) -- CPU_ReadMem(2 bytes @ 0x4004004C) - Data: 00 0C  returns 0x02 (0001ms, 99034ms total)
T3220 12877:984 JLINK_ReadMemEx(0x40040050, 0x0020 Bytes, ..., Flags = 0x02000002) -- CPU_ReadMem(32 bytes @ 0x40040050) - Data: 00 00 00 00 00 00 00 00 00 00 00 00 00 00 00 00 ...  returns 0x20 (0001ms, 99035ms total)
T3220 12877:985 JLINK_ReadMemEx(0x40040070, 0x0002 Bytes, ..., Flags = 0x02000002) -- CPU_ReadMem(2 bytes @ 0x40040070) - Data: 00 00  returns 0x02 (0001ms, 99036ms total)
T3220 12877:986 JLINK_ReadMemEx(0x400400A0, 0x0002 Bytes, ..., Flags = 0x02000002) -- CPU_ReadMem(2 bytes @ 0x400400A0) - Data: 00 00  returns 0x02 (0001ms, 99037ms total)
T3220 12877:987 JLINK_ReadMemEx(0x400400A4, 0x0002 Bytes, ..., Flags = 0x02000002) -- CPU_ReadMem(2 bytes @ 0x400400A4) - Data: 00 00  returns 0x02 (0001ms, 99038ms total)
T3220 12877:988 JLINK_ReadMemEx(0x400400A6, 0x0002 Bytes, ..., Flags = 0x02000002) -- CPU_ReadMem(2 bytes @ 0x400400A6) - Data: FF FF  returns 0x02 (0002ms, 99040ms total)
